                 * c:\users\roshan\esim-workspace\ksa8\ksa8.cir
                 Transient Analysis  Sat Jun 24 08:24:06  2023
--------------------------------------------------------------------------------
Index   time            V(1)            V(2)            V(3)            
--------------------------------------------------------------------------------
0	0.000000e+00	5.000000e+00	5.000000e+00	5.000000e+00	
1	1.000000e-05	5.000000e+00	5.000000e+00	5.000000e+00	
2	2.000000e-05	5.000000e+00	5.000000e+00	5.000000e+00	
3	4.000000e-05	5.000000e+00	5.000000e+00	5.000000e+00	
4	8.000000e-05	5.000000e+00	5.000000e+00	5.000000e+00	
5	1.600000e-04	5.000000e+00	5.000000e+00	5.000000e+00	
6	3.200000e-04	5.000000e+00	5.000000e+00	5.000000e+00	
7	6.400000e-04	5.000000e+00	5.000000e+00	5.000000e+00	
8	1.000000e-03	5.000000e+00	5.000000e+00	5.000000e+00	
9	1.064000e-03	4.680000e+00	4.680000e+00	4.680000e+00	
10	1.192000e-03	4.040000e+00	4.040000e+00	4.040000e+00	
11	1.448000e-03	2.760000e+00	2.760000e+00	2.760000e+00	
12	1.448002e-03	2.759990e+00	2.759990e+00	2.759990e+00	
13	1.448002e-03	2.759990e+00	2.759990e+00	2.759990e+00	
14	1.448002e-03	2.759988e+00	2.759988e+00	2.759988e+00	
15	1.448003e-03	2.759987e+00	2.759987e+00	2.759987e+00	
16	1.448003e-03	2.759985e+00	2.759985e+00	2.759985e+00	
17	1.448003e-03	2.759985e+00	2.759985e+00	2.759985e+00	
18	1.448003e-03	2.759984e+00	2.759984e+00	2.759984e+00	
19	1.448004e-03	2.759982e+00	2.759982e+00	2.759982e+00	
20	1.448004e-03	2.759979e+00	2.759979e+00	2.759979e+00	
21	1.448005e-03	2.759973e+00	2.759973e+00	2.759973e+00	
22	1.448008e-03	2.759960e+00	2.759960e+00	2.759960e+00	
23	1.448013e-03	2.759934e+00	2.759934e+00	2.759934e+00	
24	1.448023e-03	2.759883e+00	2.759883e+00	2.759883e+00	
25	1.448044e-03	2.759781e+00	2.759781e+00	2.759781e+00	
26	1.448085e-03	2.759576e+00	2.759576e+00	2.759576e+00	
27	1.448167e-03	2.759166e+00	2.759166e+00	2.759166e+00	
28	1.448331e-03	2.758347e+00	2.758347e+00	2.758347e+00	
29	1.448658e-03	2.756709e+00	2.756709e+00	2.756709e+00	
30	1.449314e-03	2.753432e+00	2.753432e+00	2.753432e+00	
31	1.450624e-03	2.746878e+00	2.746878e+00	2.746878e+00	
32	1.453246e-03	2.733771e+00	2.733771e+00	2.733771e+00	
33	1.458489e-03	2.707557e+00	2.707557e+00	2.707557e+00	
34	1.468974e-03	2.655128e+00	2.655128e+00	2.655128e+00	
35	1.489946e-03	2.550270e+00	2.550270e+00	2.550270e+00	
36	1.531889e-03	2.340555e+00	2.340555e+00	2.340555e+00	
37	1.615775e-03	1.921125e+00	1.921125e+00	1.921125e+00	
38	1.783547e-03	1.082264e+00	1.082264e+00	1.082264e+00	
39	2.000000e-03	0.000000e+00	0.000000e+00	0.000000e+00	
40	2.000002e-03	0.000000e+00	0.000000e+00	0.000000e+00	
41	2.000002e-03	0.000000e+00	0.000000e+00	0.000000e+00	
42	2.000002e-03	0.000000e+00	0.000000e+00	0.000000e+00	
43	2.000003e-03	0.000000e+00	0.000000e+00	0.000000e+00	
44	2.000003e-03	0.000000e+00	0.000000e+00	0.000000e+00	
45	2.000003e-03	0.000000e+00	0.000000e+00	0.000000e+00	
46	2.000003e-03	0.000000e+00	0.000000e+00	0.000000e+00	
47	2.000004e-03	0.000000e+00	0.000000e+00	0.000000e+00	
48	2.000004e-03	0.000000e+00	0.000000e+00	0.000000e+00	
49	2.000005e-03	0.000000e+00	0.000000e+00	0.000000e+00	
50	2.000008e-03	0.000000e+00	0.000000e+00	0.000000e+00	
51	2.000013e-03	0.000000e+00	0.000000e+00	0.000000e+00	
52	2.000023e-03	0.000000e+00	0.000000e+00	0.000000e+00	
53	2.000044e-03	0.000000e+00	0.000000e+00	0.000000e+00	
54	2.000085e-03	0.000000e+00	0.000000e+00	0.000000e+00	

Index   time            V(1)            V(2)            V(3)            
--------------------------------------------------------------------------------
55	2.000167e-03	0.000000e+00	0.000000e+00	0.000000e+00	
56	2.000331e-03	0.000000e+00	0.000000e+00	0.000000e+00	
57	2.000658e-03	0.000000e+00	0.000000e+00	0.000000e+00	
58	2.001314e-03	0.000000e+00	0.000000e+00	0.000000e+00	
59	2.002624e-03	0.000000e+00	0.000000e+00	0.000000e+00	
60	2.005246e-03	0.000000e+00	0.000000e+00	0.000000e+00	
61	2.010489e-03	0.000000e+00	0.000000e+00	0.000000e+00	
62	2.020974e-03	0.000000e+00	0.000000e+00	0.000000e+00	
63	2.041946e-03	0.000000e+00	0.000000e+00	0.000000e+00	
64	2.083889e-03	0.000000e+00	0.000000e+00	0.000000e+00	
65	2.167775e-03	0.000000e+00	0.000000e+00	0.000000e+00	
66	2.335547e-03	0.000000e+00	0.000000e+00	0.000000e+00	
67	2.671092e-03	0.000000e+00	0.000000e+00	0.000000e+00	
68	3.342180e-03	0.000000e+00	0.000000e+00	0.000000e+00	
69	4.684357e-03	0.000000e+00	0.000000e+00	0.000000e+00	
70	7.368712e-03	0.000000e+00	0.000000e+00	0.000000e+00	
71	1.273742e-02	0.000000e+00	0.000000e+00	0.000000e+00	
72	2.347484e-02	0.000000e+00	0.000000e+00	0.000000e+00	
73	4.494968e-02	0.000000e+00	0.000000e+00	0.000000e+00	
74	8.789935e-02	0.000000e+00	0.000000e+00	0.000000e+00	
75	1.737987e-01	0.000000e+00	0.000000e+00	0.000000e+00	
76	2.737987e-01	0.000000e+00	0.000000e+00	0.000000e+00	
77	3.737987e-01	0.000000e+00	0.000000e+00	0.000000e+00	
78	4.737987e-01	0.000000e+00	0.000000e+00	0.000000e+00	
79	5.737987e-01	0.000000e+00	0.000000e+00	0.000000e+00	
80	6.737987e-01	0.000000e+00	0.000000e+00	0.000000e+00	
81	7.737987e-01	0.000000e+00	0.000000e+00	0.000000e+00	
82	8.737987e-01	0.000000e+00	0.000000e+00	0.000000e+00	
83	9.737987e-01	0.000000e+00	0.000000e+00	0.000000e+00	
84	1.073799e+00	0.000000e+00	0.000000e+00	0.000000e+00	
85	1.173799e+00	0.000000e+00	0.000000e+00	0.000000e+00	
86	1.273799e+00	0.000000e+00	0.000000e+00	0.000000e+00	
87	1.373799e+00	0.000000e+00	0.000000e+00	0.000000e+00	
88	1.473799e+00	0.000000e+00	0.000000e+00	0.000000e+00	
89	1.573799e+00	0.000000e+00	0.000000e+00	0.000000e+00	
90	1.673799e+00	0.000000e+00	0.000000e+00	0.000000e+00	
91	1.773799e+00	0.000000e+00	0.000000e+00	0.000000e+00	
92	1.873799e+00	0.000000e+00	0.000000e+00	0.000000e+00	
93	1.973799e+00	0.000000e+00	0.000000e+00	0.000000e+00	
94	2.073799e+00	0.000000e+00	0.000000e+00	0.000000e+00	
95	2.173799e+00	0.000000e+00	0.000000e+00	0.000000e+00	
96	2.273799e+00	0.000000e+00	0.000000e+00	0.000000e+00	
97	2.373799e+00	0.000000e+00	0.000000e+00	0.000000e+00	
98	2.473799e+00	0.000000e+00	0.000000e+00	0.000000e+00	
99	2.573799e+00	0.000000e+00	0.000000e+00	0.000000e+00	
100	2.673799e+00	0.000000e+00	0.000000e+00	0.000000e+00	
101	2.773799e+00	0.000000e+00	0.000000e+00	0.000000e+00	
102	2.873799e+00	0.000000e+00	0.000000e+00	0.000000e+00	
103	2.973799e+00	0.000000e+00	0.000000e+00	0.000000e+00	
104	3.073799e+00	0.000000e+00	0.000000e+00	0.000000e+00	
105	3.173799e+00	0.000000e+00	0.000000e+00	0.000000e+00	
106	3.273799e+00	0.000000e+00	0.000000e+00	0.000000e+00	
107	3.373799e+00	0.000000e+00	0.000000e+00	0.000000e+00	
108	3.473799e+00	0.000000e+00	0.000000e+00	0.000000e+00	
109	3.573799e+00	0.000000e+00	0.000000e+00	0.000000e+00	
110	3.673799e+00	0.000000e+00	0.000000e+00	0.000000e+00	
111	3.773799e+00	0.000000e+00	0.000000e+00	0.000000e+00	
112	3.873799e+00	0.000000e+00	0.000000e+00	0.000000e+00	

Index   time            V(1)            V(2)            V(3)            
--------------------------------------------------------------------------------
113	3.973799e+00	0.000000e+00	0.000000e+00	0.000000e+00	
114	4.073799e+00	0.000000e+00	0.000000e+00	0.000000e+00	
115	4.173799e+00	0.000000e+00	0.000000e+00	0.000000e+00	
116	4.273799e+00	0.000000e+00	0.000000e+00	0.000000e+00	
117	4.373799e+00	0.000000e+00	0.000000e+00	0.000000e+00	
118	4.473799e+00	0.000000e+00	0.000000e+00	0.000000e+00	
119	4.573799e+00	0.000000e+00	0.000000e+00	0.000000e+00	
120	4.673799e+00	0.000000e+00	0.000000e+00	0.000000e+00	
121	4.773799e+00	0.000000e+00	0.000000e+00	0.000000e+00	
122	4.873799e+00	0.000000e+00	0.000000e+00	0.000000e+00	
123	4.973799e+00	0.000000e+00	0.000000e+00	0.000000e+00	
124	5.073799e+00	0.000000e+00	0.000000e+00	0.000000e+00	
125	5.173799e+00	0.000000e+00	0.000000e+00	0.000000e+00	
126	5.273799e+00	0.000000e+00	0.000000e+00	0.000000e+00	
127	5.373799e+00	0.000000e+00	0.000000e+00	0.000000e+00	
128	5.473799e+00	0.000000e+00	0.000000e+00	0.000000e+00	
129	5.573799e+00	0.000000e+00	0.000000e+00	0.000000e+00	
130	5.673799e+00	0.000000e+00	0.000000e+00	0.000000e+00	
131	5.773799e+00	0.000000e+00	0.000000e+00	0.000000e+00	
132	5.873799e+00	0.000000e+00	0.000000e+00	0.000000e+00	
133	5.973799e+00	0.000000e+00	0.000000e+00	0.000000e+00	
134	6.073799e+00	0.000000e+00	0.000000e+00	0.000000e+00	
135	6.173799e+00	0.000000e+00	0.000000e+00	0.000000e+00	
136	6.273799e+00	0.000000e+00	0.000000e+00	0.000000e+00	
137	6.373799e+00	0.000000e+00	0.000000e+00	0.000000e+00	
138	6.473799e+00	0.000000e+00	0.000000e+00	0.000000e+00	
139	6.573799e+00	0.000000e+00	0.000000e+00	0.000000e+00	
140	6.673799e+00	0.000000e+00	0.000000e+00	0.000000e+00	
141	6.773799e+00	0.000000e+00	0.000000e+00	0.000000e+00	
142	6.873799e+00	0.000000e+00	0.000000e+00	0.000000e+00	
143	6.973799e+00	0.000000e+00	0.000000e+00	0.000000e+00	
144	7.073799e+00	0.000000e+00	0.000000e+00	0.000000e+00	
145	7.173799e+00	0.000000e+00	0.000000e+00	0.000000e+00	
146	7.273799e+00	0.000000e+00	0.000000e+00	0.000000e+00	
147	7.373799e+00	0.000000e+00	0.000000e+00	0.000000e+00	
148	7.473799e+00	0.000000e+00	0.000000e+00	0.000000e+00	
149	7.573799e+00	0.000000e+00	0.000000e+00	0.000000e+00	
150	7.673799e+00	0.000000e+00	0.000000e+00	0.000000e+00	
151	7.773799e+00	0.000000e+00	0.000000e+00	0.000000e+00	
152	7.873799e+00	0.000000e+00	0.000000e+00	0.000000e+00	
153	7.973799e+00	0.000000e+00	0.000000e+00	0.000000e+00	
154	8.073799e+00	0.000000e+00	0.000000e+00	0.000000e+00	
155	8.173799e+00	0.000000e+00	0.000000e+00	0.000000e+00	
156	8.273799e+00	0.000000e+00	0.000000e+00	0.000000e+00	
157	8.373799e+00	0.000000e+00	0.000000e+00	0.000000e+00	
158	8.473799e+00	0.000000e+00	0.000000e+00	0.000000e+00	
159	8.573799e+00	0.000000e+00	0.000000e+00	0.000000e+00	
160	8.673799e+00	0.000000e+00	0.000000e+00	0.000000e+00	
161	8.773799e+00	0.000000e+00	0.000000e+00	0.000000e+00	
162	8.873799e+00	0.000000e+00	0.000000e+00	0.000000e+00	
163	8.973799e+00	0.000000e+00	0.000000e+00	0.000000e+00	
164	9.073799e+00	0.000000e+00	0.000000e+00	0.000000e+00	
165	9.173799e+00	0.000000e+00	0.000000e+00	0.000000e+00	
166	9.273799e+00	0.000000e+00	0.000000e+00	0.000000e+00	
167	9.373799e+00	0.000000e+00	0.000000e+00	0.000000e+00	
168	9.473799e+00	0.000000e+00	0.000000e+00	0.000000e+00	
169	9.573799e+00	0.000000e+00	0.000000e+00	0.000000e+00	
170	9.673799e+00	0.000000e+00	0.000000e+00	0.000000e+00	

Index   time            V(1)            V(2)            V(3)            
--------------------------------------------------------------------------------
171	9.773799e+00	0.000000e+00	0.000000e+00	0.000000e+00	
172	9.873799e+00	0.000000e+00	0.000000e+00	0.000000e+00	
173	9.973799e+00	0.000000e+00	0.000000e+00	0.000000e+00	
174	1.007380e+01	0.000000e+00	0.000000e+00	0.000000e+00	
175	1.017380e+01	0.000000e+00	0.000000e+00	0.000000e+00	
176	1.027380e+01	0.000000e+00	0.000000e+00	0.000000e+00	
177	1.037380e+01	0.000000e+00	0.000000e+00	0.000000e+00	
178	1.047380e+01	0.000000e+00	0.000000e+00	0.000000e+00	
179	1.057380e+01	0.000000e+00	0.000000e+00	0.000000e+00	
180	1.067380e+01	0.000000e+00	0.000000e+00	0.000000e+00	
181	1.077380e+01	0.000000e+00	0.000000e+00	0.000000e+00	
182	1.087380e+01	0.000000e+00	0.000000e+00	0.000000e+00	
183	1.097380e+01	0.000000e+00	0.000000e+00	0.000000e+00	
184	1.107380e+01	0.000000e+00	0.000000e+00	0.000000e+00	
185	1.117380e+01	0.000000e+00	0.000000e+00	0.000000e+00	
186	1.127380e+01	0.000000e+00	0.000000e+00	0.000000e+00	
187	1.137380e+01	0.000000e+00	0.000000e+00	0.000000e+00	
188	1.147380e+01	0.000000e+00	0.000000e+00	0.000000e+00	
189	1.157380e+01	0.000000e+00	0.000000e+00	0.000000e+00	
190	1.167380e+01	0.000000e+00	0.000000e+00	0.000000e+00	
191	1.177380e+01	0.000000e+00	0.000000e+00	0.000000e+00	
192	1.187380e+01	0.000000e+00	0.000000e+00	0.000000e+00	
193	1.197380e+01	0.000000e+00	0.000000e+00	0.000000e+00	
194	1.207380e+01	0.000000e+00	0.000000e+00	0.000000e+00	
195	1.217380e+01	0.000000e+00	0.000000e+00	0.000000e+00	
196	1.227380e+01	0.000000e+00	0.000000e+00	0.000000e+00	
197	1.237380e+01	0.000000e+00	0.000000e+00	0.000000e+00	
198	1.247380e+01	0.000000e+00	0.000000e+00	0.000000e+00	
199	1.257380e+01	0.000000e+00	0.000000e+00	0.000000e+00	
200	1.267380e+01	0.000000e+00	0.000000e+00	0.000000e+00	
201	1.277380e+01	0.000000e+00	0.000000e+00	0.000000e+00	
202	1.287380e+01	0.000000e+00	0.000000e+00	0.000000e+00	
203	1.297380e+01	0.000000e+00	0.000000e+00	0.000000e+00	
204	1.307380e+01	0.000000e+00	0.000000e+00	0.000000e+00	
205	1.317380e+01	0.000000e+00	0.000000e+00	0.000000e+00	
206	1.327380e+01	0.000000e+00	0.000000e+00	0.000000e+00	
207	1.337380e+01	0.000000e+00	0.000000e+00	0.000000e+00	
208	1.347380e+01	0.000000e+00	0.000000e+00	0.000000e+00	
209	1.357380e+01	0.000000e+00	0.000000e+00	0.000000e+00	
210	1.367380e+01	0.000000e+00	0.000000e+00	0.000000e+00	
211	1.377380e+01	0.000000e+00	0.000000e+00	0.000000e+00	
212	1.387380e+01	0.000000e+00	0.000000e+00	0.000000e+00	
213	1.397380e+01	0.000000e+00	0.000000e+00	0.000000e+00	
214	1.407380e+01	0.000000e+00	0.000000e+00	0.000000e+00	
215	1.417380e+01	0.000000e+00	0.000000e+00	0.000000e+00	
216	1.427380e+01	0.000000e+00	0.000000e+00	0.000000e+00	
217	1.437380e+01	0.000000e+00	0.000000e+00	0.000000e+00	
218	1.447380e+01	0.000000e+00	0.000000e+00	0.000000e+00	
219	1.457380e+01	0.000000e+00	0.000000e+00	0.000000e+00	
220	1.467380e+01	0.000000e+00	0.000000e+00	0.000000e+00	
221	1.477380e+01	0.000000e+00	0.000000e+00	0.000000e+00	
222	1.487380e+01	0.000000e+00	0.000000e+00	0.000000e+00	
223	1.497380e+01	0.000000e+00	0.000000e+00	0.000000e+00	
224	1.507380e+01	0.000000e+00	0.000000e+00	0.000000e+00	
225	1.517380e+01	0.000000e+00	0.000000e+00	0.000000e+00	
226	1.527380e+01	0.000000e+00	0.000000e+00	0.000000e+00	
227	1.537380e+01	0.000000e+00	0.000000e+00	0.000000e+00	
228	1.547380e+01	0.000000e+00	0.000000e+00	0.000000e+00	

Index   time            V(1)            V(2)            V(3)            
--------------------------------------------------------------------------------
229	1.557380e+01	0.000000e+00	0.000000e+00	0.000000e+00	
230	1.567380e+01	0.000000e+00	0.000000e+00	0.000000e+00	
231	1.577380e+01	0.000000e+00	0.000000e+00	0.000000e+00	
232	1.587380e+01	0.000000e+00	0.000000e+00	0.000000e+00	
233	1.597380e+01	0.000000e+00	0.000000e+00	0.000000e+00	
234	1.607380e+01	0.000000e+00	0.000000e+00	0.000000e+00	
235	1.617380e+01	0.000000e+00	0.000000e+00	0.000000e+00	
236	1.627380e+01	0.000000e+00	0.000000e+00	0.000000e+00	
237	1.637380e+01	0.000000e+00	0.000000e+00	0.000000e+00	
238	1.647380e+01	0.000000e+00	0.000000e+00	0.000000e+00	
239	1.657380e+01	0.000000e+00	0.000000e+00	0.000000e+00	
240	1.667380e+01	0.000000e+00	0.000000e+00	0.000000e+00	
241	1.677380e+01	0.000000e+00	0.000000e+00	0.000000e+00	
242	1.687380e+01	0.000000e+00	0.000000e+00	0.000000e+00	
243	1.697380e+01	0.000000e+00	0.000000e+00	0.000000e+00	
244	1.707380e+01	0.000000e+00	0.000000e+00	0.000000e+00	
245	1.717380e+01	0.000000e+00	0.000000e+00	0.000000e+00	
246	1.727380e+01	0.000000e+00	0.000000e+00	0.000000e+00	
247	1.737380e+01	0.000000e+00	0.000000e+00	0.000000e+00	
248	1.747380e+01	0.000000e+00	0.000000e+00	0.000000e+00	
249	1.757380e+01	0.000000e+00	0.000000e+00	0.000000e+00	
250	1.767380e+01	0.000000e+00	0.000000e+00	0.000000e+00	
251	1.777380e+01	0.000000e+00	0.000000e+00	0.000000e+00	
252	1.787380e+01	0.000000e+00	0.000000e+00	0.000000e+00	
253	1.797380e+01	0.000000e+00	0.000000e+00	0.000000e+00	
254	1.807380e+01	0.000000e+00	0.000000e+00	0.000000e+00	
255	1.817380e+01	0.000000e+00	0.000000e+00	0.000000e+00	
256	1.827380e+01	0.000000e+00	0.000000e+00	0.000000e+00	
257	1.837380e+01	0.000000e+00	0.000000e+00	0.000000e+00	
258	1.847380e+01	0.000000e+00	0.000000e+00	0.000000e+00	
259	1.857380e+01	0.000000e+00	0.000000e+00	0.000000e+00	
260	1.867380e+01	0.000000e+00	0.000000e+00	0.000000e+00	
261	1.877380e+01	0.000000e+00	0.000000e+00	0.000000e+00	
262	1.887380e+01	0.000000e+00	0.000000e+00	0.000000e+00	
263	1.897380e+01	0.000000e+00	0.000000e+00	0.000000e+00	
264	1.907380e+01	0.000000e+00	0.000000e+00	0.000000e+00	
265	1.917380e+01	0.000000e+00	0.000000e+00	0.000000e+00	
266	1.927380e+01	0.000000e+00	0.000000e+00	0.000000e+00	
267	1.937380e+01	0.000000e+00	0.000000e+00	0.000000e+00	
268	1.947380e+01	0.000000e+00	0.000000e+00	0.000000e+00	
269	1.957380e+01	0.000000e+00	0.000000e+00	0.000000e+00	
270	1.967380e+01	0.000000e+00	0.000000e+00	0.000000e+00	
271	1.977380e+01	0.000000e+00	0.000000e+00	0.000000e+00	
272	1.987380e+01	0.000000e+00	0.000000e+00	0.000000e+00	
273	1.997380e+01	0.000000e+00	0.000000e+00	0.000000e+00	
274	2.000200e+01	0.000000e+00	0.000000e+00	0.000000e+00	
275	2.000210e+01	5.000000e-01	0.000000e+00	0.000000e+00	
276	2.000230e+01	1.500000e+00	0.000000e+00	0.000000e+00	
277	2.000230e+01	1.500010e+00	0.000000e+00	0.000000e+00	
278	2.000230e+01	1.500010e+00	0.000000e+00	0.000000e+00	
279	2.000230e+01	1.500011e+00	0.000000e+00	0.000000e+00	
280	2.000230e+01	1.500013e+00	0.000000e+00	0.000000e+00	
281	2.000230e+01	1.500015e+00	0.000000e+00	0.000000e+00	
282	2.000230e+01	1.500015e+00	0.000000e+00	0.000000e+00	
283	2.000230e+01	1.500016e+00	0.000000e+00	0.000000e+00	
284	2.000230e+01	1.500018e+00	0.000000e+00	0.000000e+00	
285	2.000230e+01	1.500021e+00	0.000000e+00	0.000000e+00	
286	2.000230e+01	1.500027e+00	0.000000e+00	0.000000e+00	

Index   time            V(1)            V(2)            V(3)            
--------------------------------------------------------------------------------
287	2.000230e+01	1.500040e+00	0.000000e+00	0.000000e+00	
288	2.000230e+01	1.500066e+00	0.000000e+00	0.000000e+00	
289	2.000230e+01	1.500117e+00	0.000000e+00	0.000000e+00	
290	2.000230e+01	1.500219e+00	0.000000e+00	0.000000e+00	
291	2.000230e+01	1.500424e+00	0.000000e+00	0.000000e+00	
292	2.000230e+01	1.500834e+00	0.000000e+00	0.000000e+00	
293	2.000230e+01	1.501653e+00	0.000000e+00	0.000000e+00	
294	2.000230e+01	1.503291e+00	0.000000e+00	0.000000e+00	
295	2.000230e+01	1.506568e+00	0.000000e+00	0.000000e+00	
296	2.000230e+01	1.513122e+00	0.000000e+00	0.000000e+00	
297	2.000231e+01	1.526229e+00	0.000000e+00	0.000000e+00	
298	2.000231e+01	1.552443e+00	0.000000e+00	0.000000e+00	
299	2.000232e+01	1.604872e+00	0.000000e+00	0.000000e+00	
300	2.000234e+01	1.709730e+00	0.000000e+00	0.000000e+00	
301	2.000238e+01	1.919445e+00	0.000000e+00	0.000000e+00	
302	2.000247e+01	2.338875e+00	0.000000e+00	0.000000e+00	
303	2.000264e+01	3.177736e+00	0.000000e+00	0.000000e+00	
304	2.000297e+01	4.855458e+00	0.000000e+00	0.000000e+00	
305	2.000300e+01	5.000000e+00	0.000000e+00	0.000000e+00	
306	2.000306e+01	5.000000e+00	0.000000e+00	0.000000e+00	
307	2.000317e+01	5.000000e+00	0.000000e+00	0.000000e+00	
308	2.000340e+01	5.000000e+00	0.000000e+00	0.000000e+00	
309	2.000387e+01	5.000000e+00	0.000000e+00	0.000000e+00	
310	2.000479e+01	5.000000e+00	0.000000e+00	0.000000e+00	
311	2.000664e+01	5.000000e+00	0.000000e+00	0.000000e+00	
312	2.001034e+01	5.000000e+00	0.000000e+00	0.000000e+00	
313	2.001774e+01	5.000000e+00	0.000000e+00	0.000000e+00	
314	2.003254e+01	5.000000e+00	0.000000e+00	0.000000e+00	
315	2.006215e+01	5.000000e+00	0.000000e+00	0.000000e+00	
316	2.012135e+01	5.000000e+00	0.000000e+00	0.000000e+00	
317	2.022135e+01	5.000000e+00	0.000000e+00	0.000000e+00	
318	2.032135e+01	5.000000e+00	0.000000e+00	0.000000e+00	
319	2.042135e+01	5.000000e+00	0.000000e+00	0.000000e+00	
320	2.052135e+01	5.000000e+00	0.000000e+00	0.000000e+00	
321	2.062135e+01	5.000000e+00	0.000000e+00	0.000000e+00	
322	2.072135e+01	5.000000e+00	0.000000e+00	0.000000e+00	
323	2.082135e+01	5.000000e+00	0.000000e+00	0.000000e+00	
324	2.092135e+01	5.000000e+00	0.000000e+00	0.000000e+00	
325	2.102135e+01	5.000000e+00	0.000000e+00	0.000000e+00	
326	2.112135e+01	5.000000e+00	0.000000e+00	0.000000e+00	
327	2.122135e+01	5.000000e+00	0.000000e+00	0.000000e+00	
328	2.132135e+01	5.000000e+00	0.000000e+00	0.000000e+00	
329	2.142135e+01	5.000000e+00	0.000000e+00	0.000000e+00	
330	2.152135e+01	5.000000e+00	0.000000e+00	0.000000e+00	
331	2.162135e+01	5.000000e+00	0.000000e+00	0.000000e+00	
